 time            v(A)            v(B)            v(Y)           
 0.00000000e+00  0.00000000e+00  0.00000000e+00  3.11739930e-07 
 1.00000000e-13  1.80000000e-04  1.80000000e-04  3.46452714e-07 
 2.00000000e-13  3.60000000e-04  3.60000000e-04  4.11539969e-07 
 4.00000000e-13  7.20000000e-04  7.20000000e-04  5.94033786e-07 
 8.00000000e-13  1.44000000e-03  1.44000000e-03  1.18373944e-06 
 1.60000000e-12  2.88000000e-03  2.88000000e-03  2.73108806e-06 
 3.20000000e-12  5.76000000e-03  5.76000000e-03  5.93617644e-06 
 6.40000000e-12  1.15200000e-02  1.15200000e-02  1.11424482e-05 
 1.28000000e-11  2.30400000e-02  2.30400000e-02  1.75210516e-05 
 2.28000000e-11  4.10400000e-02  4.10400000e-02  2.15468484e-05 
 3.28000000e-11  5.90400000e-02  5.90400000e-02  2.22962053e-05 
 4.28000000e-11  7.70400000e-02  7.70400000e-02  2.19839567e-05 
 5.28000000e-11  9.50400000e-02  9.50400000e-02  2.13398795e-05 
 6.28000000e-11  1.13040000e-01  1.13040000e-01  2.06206714e-05 
 7.28000000e-11  1.31040000e-01  1.31040000e-01  1.99059135e-05 
 8.28000000e-11  1.49040000e-01  1.49040000e-01  1.92277133e-05 
 9.28000000e-11  1.67040000e-01  1.67040000e-01  1.85921268e-05 
 1.02800000e-10  1.85040000e-01  1.85040000e-01  1.80034905e-05 
 1.12800000e-10  2.03040000e-01  2.03040000e-01  1.74601055e-05 
 1.22800000e-10  2.21040000e-01  2.21040000e-01  1.69623922e-05 
 1.32800000e-10  2.39040000e-01  2.39040000e-01  1.65084051e-05 
 1.42800000e-10  2.57040000e-01  2.57040000e-01  1.60979322e-05 
 1.52800000e-10  2.75040000e-01  2.75040000e-01  1.57294940e-05 
 1.62800000e-10  2.93040000e-01  2.93040000e-01  1.54028513e-05 
 1.72800000e-10  3.11040000e-01  3.11040000e-01  1.51169628e-05 
 1.82800000e-10  3.29040000e-01  3.29040000e-01  1.48717432e-05 
 1.92800000e-10  3.47040000e-01  3.47040000e-01  1.46665295e-05 
 2.02800000e-10  3.65040000e-01  3.65040000e-01  1.45014759e-05 
 2.12800000e-10  3.83040000e-01  3.83040000e-01  1.43762725e-05 
 2.22800000e-10  4.01040000e-01  4.01040000e-01  1.42913686e-05 
 2.32800000e-10  4.19040000e-01  4.19040000e-01  1.42468150e-05 
 2.42800000e-10  4.37040000e-01  4.37040000e-01  1.42434078e-05 
 2.52800000e-10  4.55040000e-01  4.55040000e-01  1.42815960e-05 
 2.62800000e-10  4.73040000e-01  4.73040000e-01  1.43625898e-05 
 2.72800000e-10  4.91040000e-01  4.91040000e-01  1.44873156e-05 
 2.82800000e-10  5.09040000e-01  5.09040000e-01  1.46575115e-05 
 2.92800000e-10  5.27040000e-01  5.27040000e-01  1.48747366e-05 
 3.02800000e-10  5.45040000e-01  5.45040000e-01  1.51414784e-05 
 3.12800000e-10  5.63040000e-01  5.63040000e-01  1.54602465e-05 
 3.22800000e-10  5.81040000e-01  5.81040000e-01  1.58347316e-05 
 3.32800000e-10  5.99040000e-01  5.99040000e-01  1.62690480e-05 
 3.42800000e-10  6.17040000e-01  6.17040000e-01  1.67690224e-05 
 3.52800000e-10  6.35040000e-01  6.35040000e-01  1.73416993e-05 
 3.62800000e-10  6.53040000e-01  6.53040000e-01  1.79969049e-05 
 3.72800000e-10  6.71040000e-01  6.71040000e-01  1.87472021e-05 
 3.82800000e-10  6.89040000e-01  6.89040000e-01  1.96098845e-05 
 3.92800000e-10  7.07040000e-01  7.07040000e-01  2.06072386e-05 
 4.02800000e-10  7.25040000e-01  7.25040000e-01  2.17674687e-05 
 4.12800000e-10  7.43040000e-01  7.43040000e-01  2.31188067e-05 
 4.22800000e-10  7.61040000e-01  7.61040000e-01  2.46658507e-05 
 4.32800000e-10  7.79040000e-01  7.79040000e-01  2.62986112e-05 
 4.42800000e-10  7.97040000e-01  7.97040000e-01  2.75048979e-05 
 4.52800000e-10  8.15040000e-01  8.15040000e-01  2.66304267e-05 
 4.62800000e-10  8.33040000e-01  8.33040000e-01  1.97734604e-05 
 4.72800000e-10  8.51040000e-01  8.51040000e-01  1.02962390e-06 
 4.82800000e-10  8.69040000e-01  8.69040000e-01 -3.42135592e-05 
 4.92800000e-10  8.87040000e-01  8.87040000e-01 -8.24235119e-05 
 5.02800000e-10  9.05040000e-01  9.05040000e-01 -1.42709774e-04 
 5.12800000e-10  9.23040000e-01  9.23040000e-01 -2.16317358e-04 
 5.22800000e-10  9.41040000e-01  9.41040000e-01 -3.05240690e-04 
 5.32800000e-10  9.59040000e-01  9.59040000e-01 -4.17005564e-04 
 5.42800000e-10  9.77040000e-01  9.77040000e-01 -5.61414191e-04 
 5.52800000e-10  9.95040000e-01  9.95040000e-01 -7.45969169e-04 
 5.62800000e-10  1.01304000e+00  1.01304000e+00 -9.70506730e-04 
 5.72800000e-10  1.03104000e+00  1.03104000e+00 -1.23466772e-03 
 5.82800000e-10  1.04904000e+00  1.04904000e+00 -1.53911030e-03 
 5.92800000e-10  1.06704000e+00  1.06704000e+00 -1.88110611e-03 
 6.02800000e-10  1.08504000e+00  1.08504000e+00 -2.23979176e-03 
 6.12800000e-10  1.10304000e+00  1.10304000e+00 -2.55265210e-03 
 6.22800000e-10  1.12104000e+00  1.12104000e+00 -2.70317465e-03 
 6.32800000e-10  1.13904000e+00  1.13904000e+00 -2.52916971e-03 
 6.42800000e-10  1.15704000e+00  1.15704000e+00 -1.82538393e-03 
 6.52800000e-10  1.17504000e+00  1.17504000e+00 -3.33773696e-04 
 6.62800000e-10  1.19304000e+00  1.19304000e+00  2.23410083e-03 
 6.72800000e-10  1.21104000e+00  1.21104000e+00  6.11819340e-03 
 6.82800000e-10  1.22904000e+00  1.22904000e+00  1.13600118e-02 
 6.92800000e-10  1.24704000e+00  1.24704000e+00  1.76973935e-02 
 7.02800000e-10  1.26504000e+00  1.26504000e+00  2.47718603e-02 
 7.12800000e-10  1.28304000e+00  1.28304000e+00  3.23106881e-02 
 7.22800000e-10  1.30104000e+00  1.30104000e+00  4.01216105e-02 
 7.32800000e-10  1.31904000e+00  1.31904000e+00  4.80841343e-02 
 7.42800000e-10  1.33704000e+00  1.33704000e+00  5.61254794e-02 
 7.52800000e-10  1.35504000e+00  1.35504000e+00  6.42060921e-02 
 7.62800000e-10  1.37304000e+00  1.37304000e+00  7.23029399e-02 
 7.72800000e-10  1.39104000e+00  1.39104000e+00  8.04045917e-02 
 7.82800000e-10  1.40904000e+00  1.40904000e+00  8.85038470e-02 
 7.92800000e-10  1.42704000e+00  1.42704000e+00  9.65975214e-02 
 8.02800000e-10  1.44504000e+00  1.44504000e+00  1.04683068e-01 
 8.12800000e-10  1.46304000e+00  1.46304000e+00  1.12759575e-01 
 8.22800000e-10  1.48104000e+00  1.48104000e+00  1.20825908e-01 
 8.32800000e-10  1.49904000e+00  1.49904000e+00  1.28881778e-01 
 8.42800000e-10  1.51704000e+00  1.51704000e+00  1.36926544e-01 
 8.52800000e-10  1.53504000e+00  1.53504000e+00  1.44960091e-01 
 8.62800000e-10  1.55304000e+00  1.55304000e+00  1.52981995e-01 
 8.72800000e-10  1.57104000e+00  1.57104000e+00  1.60992189e-01 
 8.82800000e-10  1.58904000e+00  1.58904000e+00  1.68990368e-01 
 8.92800000e-10  1.60704000e+00  1.60704000e+00  1.76976477e-01 
 9.02800000e-10  1.62504000e+00  1.62504000e+00  1.84950288e-01 
 9.12800000e-10  1.64304000e+00  1.64304000e+00  1.92911746e-01 
 9.22800000e-10  1.66104000e+00  1.66104000e+00  2.00860676e-01 
 9.32800000e-10  1.67904000e+00  1.67904000e+00  2.08797023e-01 
 9.42800000e-10  1.69704000e+00  1.69704000e+00  2.16720651e-01 
 9.52800000e-10  1.71504000e+00  1.71504000e+00  2.24631505e-01 
 9.62800000e-10  1.73304000e+00  1.73304000e+00  2.32529479e-01 
 9.72800000e-10  1.75104000e+00  1.75104000e+00  2.40414515e-01 
 9.82800000e-10  1.76904000e+00  1.76904000e+00  2.48286534e-01 
 9.92800000e-10  1.78704000e+00  1.78704000e+00  2.56145449e-01 
 1.00000000e-09  1.80000000e+00  1.80000000e+00  2.61795699e-01 
 1.00100000e-09  1.80000000e+00  1.80000000e+00  2.62579148e-01 
 1.00300000e-09  1.80000000e+00  1.80000000e+00  2.64145973e-01 
 1.00700000e-09  1.80000000e+00  1.80000000e+00  2.67282537e-01 
 1.01500000e-09  1.80000000e+00  1.80000000e+00  2.73565798e-01 
 1.02500000e-09  1.80000000e+00  1.80000000e+00  2.81424140e-01 
 1.03500000e-09  1.80000000e+00  1.80000000e+00  2.89276193e-01 
 1.04500000e-09  1.80000000e+00  1.80000000e+00  2.97116788e-01 
 1.05500000e-09  1.80000000e+00  1.80000000e+00  3.04944270e-01 
 1.06500000e-09  1.80000000e+00  1.80000000e+00  3.12757947e-01 
 1.07500000e-09  1.80000000e+00  1.80000000e+00  3.20557680e-01 
 1.08500000e-09  1.80000000e+00  1.80000000e+00  3.28343316e-01 
 1.09500000e-09  1.80000000e+00  1.80000000e+00  3.36114881e-01 
 1.10500000e-09  1.80000000e+00  1.80000000e+00  3.43872299e-01 
 1.11500000e-09  1.80000000e+00  1.80000000e+00  3.51615601e-01 
 1.12500000e-09  1.80000000e+00  1.80000000e+00  3.59344729e-01 
 1.13500000e-09  1.80000000e+00  1.80000000e+00  3.67059708e-01 
 1.14500000e-09  1.80000000e+00  1.80000000e+00  3.74760485e-01 
 1.15500000e-09  1.80000000e+00  1.80000000e+00  3.82447078e-01 
 1.16500000e-09  1.80000000e+00  1.80000000e+00  3.90119441e-01 
 1.17500000e-09  1.80000000e+00  1.80000000e+00  3.97777583e-01 
 1.18500000e-09  1.80000000e+00  1.80000000e+00  4.05421463e-01 
 1.19500000e-09  1.80000000e+00  1.80000000e+00  4.13051085e-01 
 1.20500000e-09  1.80000000e+00  1.80000000e+00  4.20666409e-01 
 1.21500000e-09  1.80000000e+00  1.80000000e+00  4.28267434e-01 
 1.22500000e-09  1.80000000e+00  1.80000000e+00  4.35854123e-01 
 1.23500000e-09  1.80000000e+00  1.80000000e+00  4.43426471e-01 
 1.24500000e-09  1.80000000e+00  1.80000000e+00  4.50984442e-01 
 1.25500000e-09  1.80000000e+00  1.80000000e+00  4.58528026e-01 
 1.26500000e-09  1.80000000e+00  1.80000000e+00  4.66057188e-01 
 1.27500000e-09  1.80000000e+00  1.80000000e+00  4.73571915e-01 
 1.28500000e-09  1.80000000e+00  1.80000000e+00  4.81072172e-01 
 1.29500000e-09  1.80000000e+00  1.80000000e+00  4.88557943e-01 
 1.30500000e-09  1.80000000e+00  1.80000000e+00  4.96029192e-01 
 1.31500000e-09  1.80000000e+00  1.80000000e+00  5.03485900e-01 
 1.32500000e-09  1.80000000e+00  1.80000000e+00  5.10928031e-01 
 1.33500000e-09  1.80000000e+00  1.80000000e+00  5.18355562e-01 
 1.34500000e-09  1.80000000e+00  1.80000000e+00  5.25768457e-01 
 1.35500000e-09  1.80000000e+00  1.80000000e+00  5.33166689e-01 
 1.36500000e-09  1.80000000e+00  1.80000000e+00  5.40550222e-01 
 1.37500000e-09  1.80000000e+00  1.80000000e+00  5.47919025e-01 
 1.38500000e-09  1.80000000e+00  1.80000000e+00  5.55273061e-01 
 1.39500000e-09  1.80000000e+00  1.80000000e+00  5.62612295e-01 
 1.40500000e-09  1.80000000e+00  1.80000000e+00  5.69936690e-01 
 1.41500000e-09  1.80000000e+00  1.80000000e+00  5.77246208e-01 
 1.42500000e-09  1.80000000e+00  1.80000000e+00  5.84540807e-01 
 1.43500000e-09  1.80000000e+00  1.80000000e+00  5.91820448e-01 
 1.44500000e-09  1.80000000e+00  1.80000000e+00  5.99085087e-01 
 1.45500000e-09  1.80000000e+00  1.80000000e+00  6.06334680e-01 
 1.46500000e-09  1.80000000e+00  1.80000000e+00  6.13569183e-01 
 1.47500000e-09  1.80000000e+00  1.80000000e+00  6.20788547e-01 
 1.48500000e-09  1.80000000e+00  1.80000000e+00  6.27992724e-01 
 1.49500000e-09  1.80000000e+00  1.80000000e+00  6.35181664e-01 
 1.50500000e-09  1.80000000e+00  1.80000000e+00  6.42355313e-01 
 1.51500000e-09  1.80000000e+00  1.80000000e+00  6.49513620e-01 
 1.52500000e-09  1.80000000e+00  1.80000000e+00  6.56656526e-01 
 1.53500000e-09  1.80000000e+00  1.80000000e+00  6.63783975e-01 
 1.54500000e-09  1.80000000e+00  1.80000000e+00  6.70895907e-01 
 1.55500000e-09  1.80000000e+00  1.80000000e+00  6.77992259e-01 
 1.56500000e-09  1.80000000e+00  1.80000000e+00  6.85072968e-01 
 1.57500000e-09  1.80000000e+00  1.80000000e+00  6.92137967e-01 
 1.58500000e-09  1.80000000e+00  1.80000000e+00  6.99187188e-01 
 1.59500000e-09  1.80000000e+00  1.80000000e+00  7.06220558e-01 
 1.60500000e-09  1.80000000e+00  1.80000000e+00  7.13238005e-01 
 1.61500000e-09  1.80000000e+00  1.80000000e+00  7.20239451e-01 
 1.62500000e-09  1.80000000e+00  1.80000000e+00  7.27224819e-01 
 1.63500000e-09  1.80000000e+00  1.80000000e+00  7.34194025e-01 
 1.64500000e-09  1.80000000e+00  1.80000000e+00  7.41146955e-01 
 1.65500000e-09  1.80000000e+00  1.80000000e+00  7.48083518e-01 
 1.66500000e-09  1.80000000e+00  1.80000000e+00  7.55003654e-01 
 1.67500000e-09  1.80000000e+00  1.80000000e+00  7.61907265e-01 
 1.68500000e-09  1.80000000e+00  1.80000000e+00  7.68794256e-01 
 1.69500000e-09  1.80000000e+00  1.80000000e+00  7.75664524e-01 
 1.70500000e-09  1.80000000e+00  1.80000000e+00  7.82517964e-01 
 1.71500000e-09  1.80000000e+00  1.80000000e+00  7.89354466e-01 
 1.72500000e-09  1.80000000e+00  1.80000000e+00  7.96173917e-01 
 1.73500000e-09  1.80000000e+00  1.80000000e+00  8.02976200e-01 
 1.74500000e-09  1.80000000e+00  1.80000000e+00  8.09761194e-01 
 1.75500000e-09  1.80000000e+00  1.80000000e+00  8.16528772e-01 
 1.76500000e-09  1.80000000e+00  1.80000000e+00  8.23278804e-01 
 1.77500000e-09  1.80000000e+00  1.80000000e+00  8.30011155e-01 
 1.78500000e-09  1.80000000e+00  1.80000000e+00  8.36725685e-01 
 1.79500000e-09  1.80000000e+00  1.80000000e+00  8.43422249e-01 
 1.80500000e-09  1.80000000e+00  1.80000000e+00  8.50100699e-01 
 1.81500000e-09  1.80000000e+00  1.80000000e+00  8.56760878e-01 
 1.82500000e-09  1.80000000e+00  1.80000000e+00  8.63402628e-01 
 1.83500000e-09  1.80000000e+00  1.80000000e+00  8.70025783e-01 
 1.84500000e-09  1.80000000e+00  1.80000000e+00  8.76630173e-01 
 1.85500000e-09  1.80000000e+00  1.80000000e+00  8.83215623e-01 
 1.86500000e-09  1.80000000e+00  1.80000000e+00  8.89781953e-01 
 1.87500000e-09  1.80000000e+00  1.80000000e+00  8.96328976e-01 
 1.88500000e-09  1.80000000e+00  1.80000000e+00  9.02856503e-01 
 1.89500000e-09  1.80000000e+00  1.80000000e+00  9.09364337e-01 
 1.90500000e-09  1.80000000e+00  1.80000000e+00  9.15852277e-01 
 1.91500000e-09  1.80000000e+00  1.80000000e+00  9.22320120e-01 
 1.92500000e-09  1.80000000e+00  1.80000000e+00  9.28767654e-01 
 1.93500000e-09  1.80000000e+00  1.80000000e+00  9.35194667e-01 
 1.94500000e-09  1.80000000e+00  1.80000000e+00  9.41600940e-01 
 1.95500000e-09  1.80000000e+00  1.80000000e+00  9.47986251e-01 
 1.96500000e-09  1.80000000e+00  1.80000000e+00  9.54350377e-01 
 1.97500000e-09  1.80000000e+00  1.80000000e+00  9.60693088e-01 
 1.98500000e-09  1.80000000e+00  1.80000000e+00  9.67014154e-01 
 1.99500000e-09  1.80000000e+00  1.80000000e+00  9.73313342e-01 
 2.00500000e-09  1.80000000e+00  1.80000000e+00  9.79590417e-01 
 2.01500000e-09  1.80000000e+00  1.80000000e+00  9.85845142e-01 
 2.02500000e-09  1.80000000e+00  1.80000000e+00  9.92077280e-01 
 2.03500000e-09  1.80000000e+00  1.80000000e+00  9.98286590e-01 
 2.04500000e-09  1.80000000e+00  1.80000000e+00  1.00447284e+00 
 2.05500000e-09  1.80000000e+00  1.80000000e+00  1.01063577e+00 
 2.06500000e-09  1.80000000e+00  1.80000000e+00  1.01677517e+00 
 2.07500000e-09  1.80000000e+00  1.80000000e+00  1.02289078e+00 
 2.08500000e-09  1.80000000e+00  1.80000000e+00  1.02898238e+00 
 2.09500000e-09  1.80000000e+00  1.80000000e+00  1.03504971e+00 
 2.10500000e-09  1.80000000e+00  1.80000000e+00  1.04109256e+00 
 2.11500000e-09  1.80000000e+00  1.80000000e+00  1.04711068e+00 
 2.12500000e-09  1.80000000e+00  1.80000000e+00  1.05310384e+00 
 2.13500000e-09  1.80000000e+00  1.80000000e+00  1.05907182e+00 
 2.14500000e-09  1.80000000e+00  1.80000000e+00  1.06501440e+00 
 2.15500000e-09  1.80000000e+00  1.80000000e+00  1.07093134e+00 
 2.16500000e-09  1.80000000e+00  1.80000000e+00  1.07682243e+00 
 2.17500000e-09  1.80000000e+00  1.80000000e+00  1.08268746e+00 
 2.18500000e-09  1.80000000e+00  1.80000000e+00  1.08852620e+00 
 2.19500000e-09  1.80000000e+00  1.80000000e+00  1.09433846e+00 
 2.20500000e-09  1.80000000e+00  1.80000000e+00  1.10012403e+00 
 2.21500000e-09  1.80000000e+00  1.80000000e+00  1.10588270e+00 
 2.22500000e-09  1.80000000e+00  1.80000000e+00  1.11161427e+00 
 2.23500000e-09  1.80000000e+00  1.80000000e+00  1.11731857e+00 
 2.24500000e-09  1.80000000e+00  1.80000000e+00  1.12299539e+00 
 2.25500000e-09  1.80000000e+00  1.80000000e+00  1.12864456e+00 
 2.26500000e-09  1.80000000e+00  1.80000000e+00  1.13426590e+00 
 2.27500000e-09  1.80000000e+00  1.80000000e+00  1.13985923e+00 
 2.28500000e-09  1.80000000e+00  1.80000000e+00  1.14542438e+00 
 2.29500000e-09  1.80000000e+00  1.80000000e+00  1.15096119e+00 
 2.30500000e-09  1.80000000e+00  1.80000000e+00  1.15646950e+00 
 2.31500000e-09  1.80000000e+00  1.80000000e+00  1.16194916e+00 
 2.32500000e-09  1.80000000e+00  1.80000000e+00  1.16740001e+00 
 2.33500000e-09  1.80000000e+00  1.80000000e+00  1.17282191e+00 
 2.34500000e-09  1.80000000e+00  1.80000000e+00  1.17821473e+00 
 2.35500000e-09  1.80000000e+00  1.80000000e+00  1.18357833e+00 
 2.36500000e-09  1.80000000e+00  1.80000000e+00  1.18891257e+00 
 2.37500000e-09  1.80000000e+00  1.80000000e+00  1.19421735e+00 
 2.38500000e-09  1.80000000e+00  1.80000000e+00  1.19949253e+00 
 2.39500000e-09  1.80000000e+00  1.80000000e+00  1.20473800e+00 
 2.40500000e-09  1.80000000e+00  1.80000000e+00  1.20995366e+00 
 2.41500000e-09  1.80000000e+00  1.80000000e+00  1.21513940e+00 
 2.42500000e-09  1.80000000e+00  1.80000000e+00  1.22029513e+00 
 2.43500000e-09  1.80000000e+00  1.80000000e+00  1.22542074e+00 
 2.44500000e-09  1.80000000e+00  1.80000000e+00  1.23051616e+00 
 2.45500000e-09  1.80000000e+00  1.80000000e+00  1.23558130e+00 
 2.46500000e-09  1.80000000e+00  1.80000000e+00  1.24061608e+00 
 2.47500000e-09  1.80000000e+00  1.80000000e+00  1.24562043e+00 
 2.48500000e-09  1.80000000e+00  1.80000000e+00  1.25059428e+00 
 2.49500000e-09  1.80000000e+00  1.80000000e+00  1.25553756e+00 
 2.50500000e-09  1.80000000e+00  1.80000000e+00  1.26045022e+00 
 2.51500000e-09  1.80000000e+00  1.80000000e+00  1.26533221e+00 
 2.52500000e-09  1.80000000e+00  1.80000000e+00  1.27018346e+00 
 2.53500000e-09  1.80000000e+00  1.80000000e+00  1.27500395e+00 
 2.54500000e-09  1.80000000e+00  1.80000000e+00  1.27979363e+00 
 2.55500000e-09  1.80000000e+00  1.80000000e+00  1.28455246e+00 
 2.56500000e-09  1.80000000e+00  1.80000000e+00  1.28928041e+00 
 2.57500000e-09  1.80000000e+00  1.80000000e+00  1.29397747e+00 
 2.58500000e-09  1.80000000e+00  1.80000000e+00  1.29864359e+00 
 2.59500000e-09  1.80000000e+00  1.80000000e+00  1.30327877e+00 
 2.60500000e-09  1.80000000e+00  1.80000000e+00  1.30788300e+00 
 2.61500000e-09  1.80000000e+00  1.80000000e+00  1.31245626e+00 
 2.62500000e-09  1.80000000e+00  1.80000000e+00  1.31699856e+00 
 2.63500000e-09  1.80000000e+00  1.80000000e+00  1.32150988e+00 
 2.64500000e-09  1.80000000e+00  1.80000000e+00  1.32599023e+00 
 2.65500000e-09  1.80000000e+00  1.80000000e+00  1.33043963e+00 
 2.66500000e-09  1.80000000e+00  1.80000000e+00  1.33485808e+00 
 2.67500000e-09  1.80000000e+00  1.80000000e+00  1.33924560e+00 
 2.68500000e-09  1.80000000e+00  1.80000000e+00  1.34360221e+00 
 2.69500000e-09  1.80000000e+00  1.80000000e+00  1.34792793e+00 
 2.70500000e-09  1.80000000e+00  1.80000000e+00  1.35222278e+00 
 2.71500000e-09  1.80000000e+00  1.80000000e+00  1.35648681e+00 
 2.72500000e-09  1.80000000e+00  1.80000000e+00  1.36072005e+00 
 2.73500000e-09  1.80000000e+00  1.80000000e+00  1.36492252e+00 
 2.74500000e-09  1.80000000e+00  1.80000000e+00  1.36909429e+00 
 2.75500000e-09  1.80000000e+00  1.80000000e+00  1.37323538e+00 
 2.76500000e-09  1.80000000e+00  1.80000000e+00  1.37734585e+00 
 2.77500000e-09  1.80000000e+00  1.80000000e+00  1.38142576e+00 
 2.78500000e-09  1.80000000e+00  1.80000000e+00  1.38547515e+00 
 2.79500000e-09  1.80000000e+00  1.80000000e+00  1.38949409e+00 
 2.80500000e-09  1.80000000e+00  1.80000000e+00  1.39348265e+00 
 2.81500000e-09  1.80000000e+00  1.80000000e+00  1.39744087e+00 
 2.82500000e-09  1.80000000e+00  1.80000000e+00  1.40136885e+00 
 2.83500000e-09  1.80000000e+00  1.80000000e+00  1.40526663e+00 
 2.84500000e-09  1.80000000e+00  1.80000000e+00  1.40913431e+00 
 2.85500000e-09  1.80000000e+00  1.80000000e+00  1.41297196e+00 
 2.86500000e-09  1.80000000e+00  1.80000000e+00  1.41677966e+00 
 2.87500000e-09  1.80000000e+00  1.80000000e+00  1.42055749e+00 
 2.88500000e-09  1.80000000e+00  1.80000000e+00  1.42430554e+00 
 2.89500000e-09  1.80000000e+00  1.80000000e+00  1.42802389e+00 
 2.90500000e-09  1.80000000e+00  1.80000000e+00  1.43171265e+00 
 2.91500000e-09  1.80000000e+00  1.80000000e+00  1.43537191e+00 
 2.92500000e-09  1.80000000e+00  1.80000000e+00  1.43900175e+00 
 2.93500000e-09  1.80000000e+00  1.80000000e+00  1.44260229e+00 
 2.94500000e-09  1.80000000e+00  1.80000000e+00  1.44617361e+00 
 2.95500000e-09  1.80000000e+00  1.80000000e+00  1.44971584e+00 
